<Qucs Dataset 0.0.19>
<indep acfrequency 4>
  +5.00000000000000000000e+001
  +5.00000000000000000000e+001
  +5.00000000000000000000e+001
  +5.00000000000000000000e+001
</indep>
<dep Pr1.v acfrequency>
  +4.99997628218240786069e-001-j5.10503526185893726635e-004
  +4.99997628218240786069e-001-j5.10503526185893726635e-004
  +4.99997628218240786069e-001-j5.10503526185893726635e-004
  +4.99997628218240786069e-001-j5.10503526185893726635e-004
</dep>
<dep Pr2.v acfrequency>
  +4.99998060006895173046e-001-j1.29590503728432837605e-003
  +4.99998060006895173046e-001-j1.29590503728432837605e-003
  +4.99998060006895173046e-001-j1.29590503728432837605e-003
  +4.99998060006895173046e-001-j1.29590503728432837605e-003
</dep>
<dep Vin1.i acfrequency>
  -5.00002371781759213931e-001-j5.10503526185893835056e-004
  -5.00002371781759213931e-001-j5.10503526185893835056e-004
  -5.00002371781759213931e-001-j5.10503526185893835056e-004
  -5.00002371781759213931e-001-j5.10503526185893835056e-004
</dep>
<dep Vin2.i acfrequency>
  -5.00002371781759213931e-001-j5.10503526185893618215e-004
  -5.00002371781759213931e-001-j5.10503526185893618215e-004
  -5.00002371781759213931e-001-j5.10503526185893618215e-004
  -5.00002371781759213931e-001-j5.10503526185893618215e-004
</dep>
<dep Pr3.i acfrequency>
  +5.00002371781759213931e-001+j5.10503526185893618215e-004
  +5.00002371781759213931e-001+j5.10503526185893618215e-004
  +5.00002371781759213931e-001+j5.10503526185893618215e-004
  +5.00002371781759213931e-001+j5.10503526185893618215e-004
</dep>
<dep Pr4.i acfrequency>
  -2.40569119124593169809e-007-j2.35618331343411874972e-004
  -2.40569119124593169809e-007-j2.35618331343411874972e-004
  -2.40569119124593169809e-007-j2.35618331343411874972e-004
  -2.40569119124593169809e-007-j2.35618331343411874972e-004
</dep>
<dep Pr5.i acfrequency>
  -4.07120574488245222345e-006-j1.57079023212681003797e-003
  -4.07120574488245222345e-006-j1.57079023212681003797e-003
  -4.07120574488245222345e-006-j1.57079023212681003797e-003
  -4.07120574488245222345e-006-j1.57079023212681003797e-003
</dep>
<dep Pr6.i acfrequency>
  +5.00002131212640144042e-001+j2.74885194842481445088e-004
  +5.00002131212640144042e-001+j2.74885194842481445088e-004
  +5.00002131212640144042e-001+j2.74885194842481445088e-004
  +5.00002131212640144042e-001+j2.74885194842481445088e-004
</dep>
<dep Pr7.i acfrequency>
  -4.99998060006895284069e-001+j1.29590503728432859289e-003
  -4.99998060006895284069e-001+j1.29590503728432859289e-003
  -4.99998060006895284069e-001+j1.29590503728432859289e-003
  -4.99998060006895284069e-001+j1.29590503728432859289e-003
</dep>
<dep _net6.v acfrequency>
  +4.99997628218240952602e-001-j5.10503526185893618215e-004
  +4.99997628218240952602e-001-j5.10503526185893618215e-004
  +4.99997628218240952602e-001-j5.10503526185893618215e-004
  +4.99997628218240952602e-001-j5.10503526185893618215e-004
</dep>
<dep _net7.v acfrequency>
  +4.99998060006895284069e-001-j1.29590503728432859289e-003
  +4.99998060006895284069e-001-j1.29590503728432859289e-003
  +4.99998060006895284069e-001-j1.29590503728432859289e-003
  +4.99998060006895284069e-001-j1.29590503728432859289e-003
</dep>
<dep _net2.v acfrequency>
  -1.00000000000000000000e+000-j9.76562500000000000000e-004
  -1.00000000000000000000e+000-j9.76562500000000000000e-004
  -1.00000000000000000000e+000-j9.76562500000000000000e-004
  -1.00000000000000000000e+000-j9.76562500000000000000e-004
</dep>
<dep _net0.v acfrequency>
  -5.00002371781759213931e-001-j1.48706602618589372664e-003
  -5.00002371781759213931e-001-j1.48706602618589372664e-003
  -5.00002371781759213931e-001-j1.48706602618589372664e-003
  -5.00002371781759213931e-001-j1.48706602618589372664e-003
</dep>
<dep _net1.v acfrequency>
  -5.00001939993104826954e-001-j2.27246753728432837605e-003
  -5.00001939993104826954e-001-j2.27246753728432837605e-003
  -5.00001939993104826954e-001-j2.27246753728432837605e-003
  -5.00001939993104826954e-001-j2.27246753728432837605e-003
</dep>
<dep _net8.v acfrequency>
  +4.99998060006895284069e-001-j1.29590503728432859289e-003
  +4.99998060006895284069e-001-j1.29590503728432859289e-003
  +4.99998060006895284069e-001-j1.29590503728432859289e-003
  +4.99998060006895284069e-001-j1.29590503728432859289e-003
</dep>
<dep _net11.v acfrequency>
  +4.99998060006895284069e-001-j1.29590503728432859289e-003
  +4.99998060006895284069e-001-j1.29590503728432859289e-003
  +4.99998060006895284069e-001-j1.29590503728432859289e-003
  +4.99998060006895284069e-001-j1.29590503728432859289e-003
</dep>
<dep _net5.v acfrequency>
  +4.99998060006895284069e-001-j1.29590503728432859289e-003
  +4.99998060006895284069e-001-j1.29590503728432859289e-003
  +4.99998060006895284069e-001-j1.29590503728432859289e-003
  +4.99998060006895284069e-001-j1.29590503728432859289e-003
</dep>
<dep _net4.v acfrequency>
  +4.99997628218240952602e-001-j5.10503526185893618215e-004
  +4.99997628218240952602e-001-j5.10503526185893618215e-004
  +4.99997628218240952602e-001-j5.10503526185893618215e-004
  +4.99997628218240952602e-001-j5.10503526185893618215e-004
</dep>
<dep _net10.v acfrequency>
  +1.00000000000000022204e+000
  +1.00000000000000022204e+000
  +1.00000000000000022204e+000
  +1.00000000000000022204e+000
</dep>
<dep _net9.v acfrequency>
  +1.00000000000000022204e+000
  +1.00000000000000022204e+000
  +1.00000000000000022204e+000
  +1.00000000000000022204e+000
</dep>
<dep _net3.v acfrequency>
  +0.00000000000000000000e+000-j9.76562499999999891580e-004
  +0.00000000000000000000e+000-j9.76562499999999891580e-004
  +0.00000000000000000000e+000-j9.76562499999999891580e-004
  +0.00000000000000000000e+000-j9.76562499999999891580e-004
</dep>
