<Qucs Dataset 0.0.19>
<indep acfrequency 19>
  +5.00000000000000000000e+001
  +5.00000000000000000000e+001
  +5.00000000000000000000e+001
  +5.00000000000000000000e+001
  +5.00000000000000000000e+001
  +5.00000000000000000000e+001
  +5.00000000000000000000e+001
  +5.00000000000000000000e+001
  +5.00000000000000000000e+001
  +5.00000000000000000000e+001
  +5.00000000000000000000e+001
  +5.00000000000000000000e+001
  +5.00000000000000000000e+001
  +5.00000000000000000000e+001
  +5.00000000000000000000e+001
  +5.00000000000000000000e+001
  +5.00000000000000000000e+001
  +5.00000000000000000000e+001
  +5.00000000000000000000e+001
</indep>
<dep Pr1.v acfrequency>
  -1.00000000000000000000e+012
  -1.00000000000000000000e+012
  -1.00000000000000000000e+012
  -1.00000000000000000000e+012
  -1.00000000000000000000e+012
  -1.00000000000000000000e+012
  -1.00000000000000000000e+012
  -1.00000000000000000000e+012
  -1.00000000000000000000e+012
  -1.00000000000000000000e+012
  -1.00000000000000000000e+012
  -1.00000000000000000000e+012
  -1.00000000000000000000e+012
  -1.00000000000000000000e+012
  -1.00000000000000000000e+012
  -1.00000000000000000000e+012
  -1.00000000000000000000e+012
  -1.00000000000000000000e+012
  -1.00000000000000000000e+012
</dep>
<dep _net1.v acfrequency>
  +9.99995281006431868676e-001-j2.31082064890852922900e-003
  +9.99995281006431868676e-001-j2.31082064890852922900e-003
  +9.99995281006431868676e-001-j2.31082064890852922900e-003
  +9.99995281006431868676e-001-j2.31082064890852922900e-003
  +9.99995281006431868676e-001-j2.31082064890852922900e-003
  +9.99995281006431868676e-001-j2.31082064890852922900e-003
  +9.99995281006431868676e-001-j2.31082064890852922900e-003
  +9.99995281006431868676e-001-j2.31082064890852922900e-003
  +9.99995281006431868676e-001-j2.31082064890852922900e-003
  +9.99995281006431868676e-001-j2.31082064890852922900e-003
  +9.99995281006431868676e-001-j2.31082064890852922900e-003
  +9.99995281006431868676e-001-j2.31082064890852922900e-003
  +9.99995281006431868676e-001-j2.31082064890852922900e-003
  +9.99995281006431868676e-001-j2.31082064890852922900e-003
  +9.99995281006431868676e-001-j2.31082064890852922900e-003
  +9.99995281006431868676e-001-j2.31082064890852922900e-003
  +9.99995281006431868676e-001-j2.31082064890852922900e-003
  +9.99995281006431868676e-001-j2.31082064890852922900e-003
  +9.99995281006431868676e-001-j2.31082064890852922900e-003
</dep>
<dep _net3.v acfrequency>
  -1.00000000000000000000e+012
  -1.00000000000000000000e+012
  -1.00000000000000000000e+012
  -1.00000000000000000000e+012
  -1.00000000000000000000e+012
  -1.00000000000000000000e+012
  -1.00000000000000000000e+012
  -1.00000000000000000000e+012
  -1.00000000000000000000e+012
  -1.00000000000000000000e+012
  -1.00000000000000000000e+012
  -1.00000000000000000000e+012
  -1.00000000000000000000e+012
  -1.00000000000000000000e+012
  -1.00000000000000000000e+012
  -1.00000000000000000000e+012
  -1.00000000000000000000e+012
  -1.00000000000000000000e+012
  -1.00000000000000000000e+012
</dep>
<dep _net2.v acfrequency>
  +0.00000000000000000000e+000
  +0.00000000000000000000e+000
  +0.00000000000000000000e+000
  +0.00000000000000000000e+000
  +0.00000000000000000000e+000
  +0.00000000000000000000e+000
  +0.00000000000000000000e+000
  +0.00000000000000000000e+000
  +0.00000000000000000000e+000
  +0.00000000000000000000e+000
  +0.00000000000000000000e+000
  +0.00000000000000000000e+000
  +0.00000000000000000000e+000
  +0.00000000000000000000e+000
  +0.00000000000000000000e+000
  +0.00000000000000000000e+000
  +0.00000000000000000000e+000
  +0.00000000000000000000e+000
  +0.00000000000000000000e+000
</dep>
<dep _net0.v acfrequency>
  +9.99990652360673637489e-001-j3.73847531838520600461e-003
  +9.99990652360673637489e-001-j3.73847531838520600461e-003
  +9.99990652360673637489e-001-j3.73847531838520600461e-003
  +9.99990652360673637489e-001-j3.73847531838520600461e-003
  +9.99990652360673637489e-001-j3.73847531838520600461e-003
  +9.99990652360673637489e-001-j3.73847531838520600461e-003
  +9.99990652360673637489e-001-j3.73847531838520600461e-003
  +9.99990652360673637489e-001-j3.73847531838520600461e-003
  +9.99990652360673637489e-001-j3.73847531838520600461e-003
  +9.99990652360673637489e-001-j3.73847531838520600461e-003
  +9.99990652360673637489e-001-j3.73847531838520600461e-003
  +9.99990652360673637489e-001-j3.73847531838520600461e-003
  +9.99990652360673637489e-001-j3.73847531838520600461e-003
  +9.99990652360673637489e-001-j3.73847531838520600461e-003
  +9.99990652360673637489e-001-j3.73847531838520600461e-003
  +9.99990652360673637489e-001-j3.73847531838520600461e-003
  +9.99990652360673637489e-001-j3.73847531838520600461e-003
  +9.99990652360673637489e-001-j3.73847531838520600461e-003
  +9.99990652360673637489e-001-j3.73847531838520600461e-003
</dep>
