<Qucs Dataset 0.0.19>
<indep time 11>
  +0.00000000000000000000e+000
  +2.00000000000000011102e-001
  +4.00000000000000022204e-001
  +5.99999999999999977796e-001
  +8.00000000000000044409e-001
  +1.00000000000000000000e+000
  +1.19999999999999995559e+000
  +1.39999999999999991118e+000
  +1.60000000000000008882e+000
  +1.80000000000000004441e+000
  +2.00000000000000000000e+000
</indep>
<dep Pr1.It time>
  -0.00000000000000000000e+000
  -3.22090599391942050336e-014
  -3.07528255965720057402e-014
  -2.93306613126770300295e-014
  -2.79422283705826810183e-014
  -2.65871789232994738983e-014
  -2.52651565415446657334e-014
  -2.39757967474774123547e-014
  +2.25329288267060206810e-014
  +2.13125247965602976256e-014
  +2.01235883920441559096e-014
</dep>
<dep V1.It time>
  +0.00000000000000000000e+000
  +1.54728198804005996441e-013
  +1.53920059530045876155e-013
  +1.53037858848157816569e-013
  +1.52084971670458703636e-013
  +1.51064693279057459102e-013
  +1.49980240144130304956e-013
  +1.48834750762135836098e-013
  -1.47445952423193749544e-013
  -1.46179502774773404888e-013
  -1.44861403209739163651e-013
</dep>
<dep _net4.Vt time>
  +0.00000000000000000000e+000
  +0.00000000000000000000e+000
  +0.00000000000000000000e+000
  +0.00000000000000000000e+000
  +0.00000000000000000000e+000
  +0.00000000000000000000e+000
  +0.00000000000000000000e+000
  +0.00000000000000000000e+000
  +0.00000000000000000000e+000
  +0.00000000000000000000e+000
  +0.00000000000000000000e+000
</dep>
<dep _net1.Vt time>
  +0.00000000000000000000e+000
  -3.22090599391942050336e-014
  -3.07528255965720057402e-014
  -2.93306613126770300295e-014
  -2.79422283705826810183e-014
  -2.65871789232994738983e-014
  -2.52651565415446657334e-014
  -2.39757967474774123547e-014
  +2.25329288267060206810e-014
  +2.13125247965602976256e-014
  +2.01235883920441559096e-014
</dep>
<dep _net2.Vt time>
  +0.00000000000000000000e+000
  -3.22090599391942050336e-014
  -3.07528255965720057402e-014
  -2.93306613126770300295e-014
  -2.79422283705826810183e-014
  -2.65871789232994738983e-014
  -2.52651565415446657334e-014
  -2.39757967474774123547e-014
  +2.25329288267060206810e-014
  +2.13125247965602976256e-014
  +2.01235883920441559096e-014
</dep>
<dep _net3.Vt time>
  +0.00000000000000000000e+000
  +0.00000000000000000000e+000
  +0.00000000000000000000e+000
  +0.00000000000000000000e+000
  +0.00000000000000000000e+000
  +0.00000000000000000000e+000
  +0.00000000000000000000e+000
  +0.00000000000000000000e+000
  +0.00000000000000000000e+000
  +0.00000000000000000000e+000
  +0.00000000000000000000e+000
</dep>
<dep _net0.Vt time>
  +0.00000000000000000000e+000
  +1.54728198804005996441e-013
  +1.53920059530045876155e-013
  +1.53037858848157816569e-013
  +1.52084971670458703636e-013
  +1.51064693279057459102e-013
  +1.49980240144130304956e-013
  +1.48834750762135836098e-013
  -1.47445952423193749544e-013
  -1.46179502774773404888e-013
  -1.44861403209739163651e-013
</dep>
<indep Pr1.I 1>
  +0.00000000000000000000e+000
</indep>
<indep V1.I 1>
  +0.00000000000000000000e+000
</indep>
<indep _net4.V 1>
  +0.00000000000000000000e+000
</indep>
<indep _net1.V 1>
  +0.00000000000000000000e+000
</indep>
<indep _net2.V 1>
  +0.00000000000000000000e+000
</indep>
<indep _net3.V 1>
  +0.00000000000000000000e+000
</indep>
<indep _net0.V 1>
  +0.00000000000000000000e+000
</indep>
