<Qucs Dataset 0.0.19>
<indep acfrequency 19>
  +5.00000000000000000000e+001
  +5.00000000000000000000e+001
  +5.00000000000000000000e+001
  +5.00000000000000000000e+001
  +5.00000000000000000000e+001
  +5.00000000000000000000e+001
  +5.00000000000000000000e+001
  +5.00000000000000000000e+001
  +5.00000000000000000000e+001
  +5.00000000000000000000e+001
  +5.00000000000000000000e+001
  +5.00000000000000000000e+001
  +5.00000000000000000000e+001
  +5.00000000000000000000e+001
  +5.00000000000000000000e+001
  +5.00000000000000000000e+001
  +5.00000000000000000000e+001
  +5.00000000000000000000e+001
  +5.00000000000000000000e+001
</indep>
<dep Pr1.v acfrequency>
  +4.99998060006895117535e-001-j1.29590503730829314719e-003
  +4.99998060006895117535e-001-j1.29590503730829314719e-003
  +4.99998060006895117535e-001-j1.29590503730829314719e-003
  +4.99998060006895117535e-001-j1.29590503730829314719e-003
  +4.99998060006895117535e-001-j1.29590503730829314719e-003
  +4.99998060006895117535e-001-j1.29590503730829314719e-003
  +4.99998060006895117535e-001-j1.29590503730829314719e-003
  +4.99998060006895117535e-001-j1.29590503730829314719e-003
  +4.99998060006895117535e-001-j1.29590503730829314719e-003
  +4.99998060006895117535e-001-j1.29590503730829314719e-003
  +4.99998060006895117535e-001-j1.29590503730829314719e-003
  +4.99998060006895117535e-001-j1.29590503730829314719e-003
  +4.99998060006895117535e-001-j1.29590503730829314719e-003
  +4.99998060006895117535e-001-j1.29590503730829314719e-003
  +4.99998060006895117535e-001-j1.29590503730829314719e-003
  +4.99998060006895117535e-001-j1.29590503730829314719e-003
  +4.99998060006895117535e-001-j1.29590503730829314719e-003
  +4.99998060006895117535e-001-j1.29590503730829314719e-003
  +4.99998060006895117535e-001-j1.29590503730829314719e-003
</dep>
<dep Pr3.v acfrequency>
  +4.99999115435996510648e-001-j7.90157732535658207697e-004
  +4.99999115435996510648e-001-j7.90157732535658207697e-004
  +4.99999115435996510648e-001-j7.90157732535658207697e-004
  +4.99999115435996510648e-001-j7.90157732535658207697e-004
  +4.99999115435996510648e-001-j7.90157732535658207697e-004
  +4.99999115435996510648e-001-j7.90157732535658207697e-004
  +4.99999115435996510648e-001-j7.90157732535658207697e-004
  +4.99999115435996510648e-001-j7.90157732535658207697e-004
  +4.99999115435996510648e-001-j7.90157732535658207697e-004
  +4.99999115435996510648e-001-j7.90157732535658207697e-004
  +4.99999115435996510648e-001-j7.90157732535658207697e-004
  +4.99999115435996510648e-001-j7.90157732535658207697e-004
  +4.99999115435996510648e-001-j7.90157732535658207697e-004
  +4.99999115435996510648e-001-j7.90157732535658207697e-004
  +4.99999115435996510648e-001-j7.90157732535658207697e-004
  +4.99999115435996510648e-001-j7.90157732535658207697e-004
  +4.99999115435996510648e-001-j7.90157732535658207697e-004
  +4.99999115435996510648e-001-j7.90157732535658207697e-004
  +4.99999115435996510648e-001-j7.90157732535658207697e-004
</dep>
<dep Pr2.i acfrequency>
  -4.99998060006895117535e-001+j1.29590503730829314719e-003
  -4.99998060006895117535e-001+j1.29590503730829314719e-003
  -4.99998060006895117535e-001+j1.29590503730829314719e-003
  -4.99998060006895117535e-001+j1.29590503730829314719e-003
  -4.99998060006895117535e-001+j1.29590503730829314719e-003
  -4.99998060006895117535e-001+j1.29590503730829314719e-003
  -4.99998060006895117535e-001+j1.29590503730829314719e-003
  -4.99998060006895117535e-001+j1.29590503730829314719e-003
  -4.99998060006895117535e-001+j1.29590503730829314719e-003
  -4.99998060006895117535e-001+j1.29590503730829314719e-003
  -4.99998060006895117535e-001+j1.29590503730829314719e-003
  -4.99998060006895117535e-001+j1.29590503730829314719e-003
  -4.99998060006895117535e-001+j1.29590503730829314719e-003
  -4.99998060006895117535e-001+j1.29590503730829314719e-003
  -4.99998060006895117535e-001+j1.29590503730829314719e-003
  -4.99998060006895117535e-001+j1.29590503730829314719e-003
  -4.99998060006895117535e-001+j1.29590503730829314719e-003
  -4.99998060006895117535e-001+j1.29590503730829314719e-003
  -4.99998060006895117535e-001+j1.29590503730829314719e-003
</dep>
<dep V1.i acfrequency>
  -5.00002371781759213931e-001-j5.10503526209858280935e-004
  -5.00002371781759213931e-001-j5.10503526209858280935e-004
  -5.00002371781759213931e-001-j5.10503526209858280935e-004
  -5.00002371781759213931e-001-j5.10503526209858280935e-004
  -5.00002371781759213931e-001-j5.10503526209858280935e-004
  -5.00002371781759213931e-001-j5.10503526209858280935e-004
  -5.00002371781759213931e-001-j5.10503526209858280935e-004
  -5.00002371781759213931e-001-j5.10503526209858280935e-004
  -5.00002371781759213931e-001-j5.10503526209858280935e-004
  -5.00002371781759213931e-001-j5.10503526209858280935e-004
  -5.00002371781759213931e-001-j5.10503526209858280935e-004
  -5.00002371781759213931e-001-j5.10503526209858280935e-004
  -5.00002371781759213931e-001-j5.10503526209858280935e-004
  -5.00002371781759213931e-001-j5.10503526209858280935e-004
  -5.00002371781759213931e-001-j5.10503526209858280935e-004
  -5.00002371781759213931e-001-j5.10503526209858280935e-004
  -5.00002371781759213931e-001-j5.10503526209858280935e-004
  -5.00002371781759213931e-001-j5.10503526209858280935e-004
  -5.00002371781759213931e-001-j5.10503526209858280935e-004
</dep>
<dep V2.i acfrequency>
  -4.99999115435996621670e-001+j7.90157732504016634655e-004
  -4.99999115435996621670e-001+j7.90157732504016634655e-004
  -4.99999115435996621670e-001+j7.90157732504016634655e-004
  -4.99999115435996621670e-001+j7.90157732504016634655e-004
  -4.99999115435996621670e-001+j7.90157732504016634655e-004
  -4.99999115435996621670e-001+j7.90157732504016634655e-004
  -4.99999115435996621670e-001+j7.90157732504016634655e-004
  -4.99999115435996621670e-001+j7.90157732504016634655e-004
  -4.99999115435996621670e-001+j7.90157732504016634655e-004
  -4.99999115435996621670e-001+j7.90157732504016634655e-004
  -4.99999115435996621670e-001+j7.90157732504016634655e-004
  -4.99999115435996621670e-001+j7.90157732504016634655e-004
  -4.99999115435996621670e-001+j7.90157732504016634655e-004
  -4.99999115435996621670e-001+j7.90157732504016634655e-004
  -4.99999115435996621670e-001+j7.90157732504016634655e-004
  -4.99999115435996621670e-001+j7.90157732504016634655e-004
  -4.99999115435996621670e-001+j7.90157732504016634655e-004
  -4.99999115435996621670e-001+j7.90157732504016634655e-004
  -4.99999115435996621670e-001+j7.90157732504016634655e-004
</dep>
<dep _net6.v acfrequency>
  +4.99999115435996510648e-001-j7.90157732535658207697e-004
  +4.99999115435996510648e-001-j7.90157732535658207697e-004
  +4.99999115435996510648e-001-j7.90157732535658207697e-004
  +4.99999115435996510648e-001-j7.90157732535658207697e-004
  +4.99999115435996510648e-001-j7.90157732535658207697e-004
  +4.99999115435996510648e-001-j7.90157732535658207697e-004
  +4.99999115435996510648e-001-j7.90157732535658207697e-004
  +4.99999115435996510648e-001-j7.90157732535658207697e-004
  +4.99999115435996510648e-001-j7.90157732535658207697e-004
  +4.99999115435996510648e-001-j7.90157732535658207697e-004
  +4.99999115435996510648e-001-j7.90157732535658207697e-004
  +4.99999115435996510648e-001-j7.90157732535658207697e-004
  +4.99999115435996510648e-001-j7.90157732535658207697e-004
  +4.99999115435996510648e-001-j7.90157732535658207697e-004
  +4.99999115435996510648e-001-j7.90157732535658207697e-004
  +4.99999115435996510648e-001-j7.90157732535658207697e-004
  +4.99999115435996510648e-001-j7.90157732535658207697e-004
  +4.99999115435996510648e-001-j7.90157732535658207697e-004
  +4.99999115435996510648e-001-j7.90157732535658207697e-004
</dep>
<dep _net5.v acfrequency>
  +4.99997503160240719389e-001-j1.81037992180763281092e-003
  +4.99997503160240719389e-001-j1.81037992180763281092e-003
  +4.99997503160240719389e-001-j1.81037992180763281092e-003
  +4.99997503160240719389e-001-j1.81037992180763281092e-003
  +4.99997503160240719389e-001-j1.81037992180763281092e-003
  +4.99997503160240719389e-001-j1.81037992180763281092e-003
  +4.99997503160240719389e-001-j1.81037992180763281092e-003
  +4.99997503160240719389e-001-j1.81037992180763281092e-003
  +4.99997503160240719389e-001-j1.81037992180763281092e-003
  +4.99997503160240719389e-001-j1.81037992180763281092e-003
  +4.99997503160240719389e-001-j1.81037992180763281092e-003
  +4.99997503160240719389e-001-j1.81037992180763281092e-003
  +4.99997503160240719389e-001-j1.81037992180763281092e-003
  +4.99997503160240719389e-001-j1.81037992180763281092e-003
  +4.99997503160240719389e-001-j1.81037992180763281092e-003
  +4.99997503160240719389e-001-j1.81037992180763281092e-003
  +4.99997503160240719389e-001-j1.81037992180763281092e-003
  +4.99997503160240719389e-001-j1.81037992180763281092e-003
  +4.99997503160240719389e-001-j1.81037992180763281092e-003
</dep>
<dep _net4.v acfrequency>
  +9.99996618596237341059e-001-j2.60053765431164955399e-003
  +9.99996618596237341059e-001-j2.60053765431164955399e-003
  +9.99996618596237341059e-001-j2.60053765431164955399e-003
  +9.99996618596237341059e-001-j2.60053765431164955399e-003
  +9.99996618596237341059e-001-j2.60053765431164955399e-003
  +9.99996618596237341059e-001-j2.60053765431164955399e-003
  +9.99996618596237341059e-001-j2.60053765431164955399e-003
  +9.99996618596237341059e-001-j2.60053765431164955399e-003
  +9.99996618596237341059e-001-j2.60053765431164955399e-003
  +9.99996618596237341059e-001-j2.60053765431164955399e-003
  +9.99996618596237341059e-001-j2.60053765431164955399e-003
  +9.99996618596237341059e-001-j2.60053765431164955399e-003
  +9.99996618596237341059e-001-j2.60053765431164955399e-003
  +9.99996618596237341059e-001-j2.60053765431164955399e-003
  +9.99996618596237341059e-001-j2.60053765431164955399e-003
  +9.99996618596237341059e-001-j2.60053765431164955399e-003
  +9.99996618596237341059e-001-j2.60053765431164955399e-003
  +9.99996618596237341059e-001-j2.60053765431164955399e-003
  +9.99996618596237341059e-001-j2.60053765431164955399e-003
</dep>
<dep _net2.v acfrequency>
  +4.99998060006895117535e-001-j1.29590503730829314719e-003
  +4.99998060006895117535e-001-j1.29590503730829314719e-003
  +4.99998060006895117535e-001-j1.29590503730829314719e-003
  +4.99998060006895117535e-001-j1.29590503730829314719e-003
  +4.99998060006895117535e-001-j1.29590503730829314719e-003
  +4.99998060006895117535e-001-j1.29590503730829314719e-003
  +4.99998060006895117535e-001-j1.29590503730829314719e-003
  +4.99998060006895117535e-001-j1.29590503730829314719e-003
  +4.99998060006895117535e-001-j1.29590503730829314719e-003
  +4.99998060006895117535e-001-j1.29590503730829314719e-003
  +4.99998060006895117535e-001-j1.29590503730829314719e-003
  +4.99998060006895117535e-001-j1.29590503730829314719e-003
  +4.99998060006895117535e-001-j1.29590503730829314719e-003
  +4.99998060006895117535e-001-j1.29590503730829314719e-003
  +4.99998060006895117535e-001-j1.29590503730829314719e-003
  +4.99998060006895117535e-001-j1.29590503730829314719e-003
  +4.99998060006895117535e-001-j1.29590503730829314719e-003
  +4.99998060006895117535e-001-j1.29590503730829314719e-003
  +4.99998060006895117535e-001-j1.29590503730829314719e-003
</dep>
<dep _net0.v acfrequency>
  +4.99997628218240786069e-001-j5.10503526209858280935e-004
  +4.99997628218240786069e-001-j5.10503526209858280935e-004
  +4.99997628218240786069e-001-j5.10503526209858280935e-004
  +4.99997628218240786069e-001-j5.10503526209858280935e-004
  +4.99997628218240786069e-001-j5.10503526209858280935e-004
  +4.99997628218240786069e-001-j5.10503526209858280935e-004
  +4.99997628218240786069e-001-j5.10503526209858280935e-004
  +4.99997628218240786069e-001-j5.10503526209858280935e-004
  +4.99997628218240786069e-001-j5.10503526209858280935e-004
  +4.99997628218240786069e-001-j5.10503526209858280935e-004
  +4.99997628218240786069e-001-j5.10503526209858280935e-004
  +4.99997628218240786069e-001-j5.10503526209858280935e-004
  +4.99997628218240786069e-001-j5.10503526209858280935e-004
  +4.99997628218240786069e-001-j5.10503526209858280935e-004
  +4.99997628218240786069e-001-j5.10503526209858280935e-004
  +4.99997628218240786069e-001-j5.10503526209858280935e-004
  +4.99997628218240786069e-001-j5.10503526209858280935e-004
  +4.99997628218240786069e-001-j5.10503526209858280935e-004
  +4.99997628218240786069e-001-j5.10503526209858280935e-004
</dep>
<dep _net1.v acfrequency>
  +4.99998060006895117535e-001-j1.29590503730829314719e-003
  +4.99998060006895117535e-001-j1.29590503730829314719e-003
  +4.99998060006895117535e-001-j1.29590503730829314719e-003
  +4.99998060006895117535e-001-j1.29590503730829314719e-003
  +4.99998060006895117535e-001-j1.29590503730829314719e-003
  +4.99998060006895117535e-001-j1.29590503730829314719e-003
  +4.99998060006895117535e-001-j1.29590503730829314719e-003
  +4.99998060006895117535e-001-j1.29590503730829314719e-003
  +4.99998060006895117535e-001-j1.29590503730829314719e-003
  +4.99998060006895117535e-001-j1.29590503730829314719e-003
  +4.99998060006895117535e-001-j1.29590503730829314719e-003
  +4.99998060006895117535e-001-j1.29590503730829314719e-003
  +4.99998060006895117535e-001-j1.29590503730829314719e-003
  +4.99998060006895117535e-001-j1.29590503730829314719e-003
  +4.99998060006895117535e-001-j1.29590503730829314719e-003
  +4.99998060006895117535e-001-j1.29590503730829314719e-003
  +4.99998060006895117535e-001-j1.29590503730829314719e-003
  +4.99998060006895117535e-001-j1.29590503730829314719e-003
  +4.99998060006895117535e-001-j1.29590503730829314719e-003
</dep>
<dep _net3.v acfrequency>
  +1.00000000000000000000e+000
  +1.00000000000000000000e+000
  +1.00000000000000000000e+000
  +1.00000000000000000000e+000
  +1.00000000000000000000e+000
  +1.00000000000000000000e+000
  +1.00000000000000000000e+000
  +1.00000000000000000000e+000
  +1.00000000000000000000e+000
  +1.00000000000000000000e+000
  +1.00000000000000000000e+000
  +1.00000000000000000000e+000
  +1.00000000000000000000e+000
  +1.00000000000000000000e+000
  +1.00000000000000000000e+000
  +1.00000000000000000000e+000
  +1.00000000000000000000e+000
  +1.00000000000000000000e+000
  +1.00000000000000000000e+000
</dep>
