<Qucs Dataset 0.0.19>
<indep time 11>
  +0.00000000000000000000e+000
  +2.00000000000000011102e-001
  +4.00000000000000022204e-001
  +5.99999999999999977796e-001
  +8.00000000000000044409e-001
  +1.00000000000000000000e+000
  +1.19999999999999995559e+000
  +1.39999999999999991118e+000
  +1.60000000000000008882e+000
  +1.80000000000000004441e+000
  +2.00000000000000000000e+000
</indep>
<dep Pr1.Vt time>
  +0.00000000000000000000e+000
  +1.29539453329810213579e-003
  +1.29544832854063224174e-003
  +1.29544832854902461708e-003
  +1.29544832854397396968e-003
  +1.29544832853629434885e-003
  +1.29544832856288332293e-003
  +1.29544832855293490063e-003
  +1.29544832855039092866e-003
  +1.29544832854449200148e-003
  +1.29544832854341907501e-003
</dep>
<dep V1.It time>
  +0.00000000000000000000e+000
  -5.10397656668164939088e-004
  -5.10404538728444884775e-004
  -5.10404538719533285018e-004
  -5.10404538725729608854e-004
  -5.10404538730957740150e-004
  -5.10404538710218253633e-004
  -5.10404538714288782270e-004
  -5.10404538721199703757e-004
  -5.10404538728451498408e-004
  -5.10404538734392492633e-004
</dep>
<dep Pr3.It time>
  +0.00000000000000000000e+000
  +1.29539453329810213579e-003
  +1.29544832854063224174e-003
  +1.29544832854902461708e-003
  +1.29544832854397396968e-003
  +1.29544832853629434885e-003
  +1.29544832856288332293e-003
  +1.29544832855293490063e-003
  +1.29544832855039092866e-003
  +1.29544832854449200148e-003
  +1.29544832854341907501e-003
</dep>
<dep _net0.Vt time>
  +0.00000000000000000000e+000
  -5.10397656670614151796e-004
  -5.10404538733343310190e-004
  -5.10404538741091777856e-004
  -5.10404538735526459685e-004
  -5.10404538728992948973e-004
  -5.10404538753335239309e-004
  -5.10404538745644125938e-004
  -5.10404538740793405419e-004
  -5.10404538736283558062e-004
  -5.10404538730462910279e-004
</dep>
<dep _net1.Vt time>
  +0.00000000000000000000e+000
  -1.29539453329810213579e-003
  -1.29544832854063224174e-003
  -1.29544832854902461708e-003
  -1.29544832854397396968e-003
  -1.29544832853629434885e-003
  -1.29544832856288332293e-003
  -1.29544832855293490063e-003
  -1.29544832855039092866e-003
  -1.29544832854449200148e-003
  -1.29544832854341907501e-003
</dep>
<dep _net2.Vt time>
  +0.00000000000000000000e+000
  -1.29539453329810213579e-003
  -1.29544832854063224174e-003
  -1.29544832854902461708e-003
  -1.29544832854397396968e-003
  -1.29544832853629434885e-003
  -1.29544832856288332293e-003
  -1.29544832855293490063e-003
  -1.29544832855039092866e-003
  -1.29544832854449200148e-003
  -1.29544832854341907501e-003
</dep>
<dep _net4.Vt time>
  +0.00000000000000000000e+000
  -2.44921270764475451642e-015
  -4.89842541528950903285e-015
  -2.15584928381362672667e-014
  -9.79685083057901806569e-015
  +1.96479117697823113531e-015
  -4.31169856762725345334e-014
  -3.13553436687152853324e-014
  -1.95937016611580361314e-014
  -7.83205965360078693038e-015
  +3.92958235395646227062e-015
</dep>
<dep _net3.Vt time>
  +0.00000000000000000000e+000
  -2.44921270764475451642e-015
  -4.89842541528950903285e-015
  -2.15584928381362672667e-014
  -9.79685083057901806569e-015
  +1.96479117697823113531e-015
  -4.31169856762725345334e-014
  -3.13553436687152853324e-014
  -1.95937016611580361314e-014
  -7.83205965360078693038e-015
  +3.92958235395646227062e-015
</dep>
<indep Pr1.V 1>
  +0.00000000000000000000e+000
</indep>
<indep V1.I 1>
  +0.00000000000000000000e+000
</indep>
<indep Pr3.I 1>
  +0.00000000000000000000e+000
</indep>
<indep _net0.V 1>
  +0.00000000000000000000e+000
</indep>
<indep _net1.V 1>
  +0.00000000000000000000e+000
</indep>
<indep _net2.V 1>
  +0.00000000000000000000e+000
</indep>
<indep _net4.V 1>
  +0.00000000000000000000e+000
</indep>
<indep _net3.V 1>
  +0.00000000000000000000e+000
</indep>
